Circuit: * C:\Users\Asus\Desktop\Ltspice seminar\Solar tracker\solar tracker.asc

Warning: Multiple definitions of model "rfn30ts6d" Type: Diode
Direct Newton iteration for .op point succeeded.
Semiconductor Device Operating Points:
                        --- Diodes ---
Name:    d:u4:3      d:u4:4      d:u4:6      d:u4:5      d:u4:2
Model:    u4:dx       u4:dx       u4:dx       u4:dx       u4:dx
Id:     -2.17e-13   -1.45e-13    2.02e-05    2.55e-04   -2.14e-11
Vd:     -2.16e-01   -1.44e-01    6.14e-01    6.79e-01   -2.14e+01
Req:     1.00e+12    1.00e+12    1.28e+03    1.01e+02    1.00e+12
CAP:     0.00e+00    0.00e+00    0.00e+00    0.00e+00    0.00e+00

Name:    d:u4:1      d:u3:3      d:u3:4      d:u3:6      d:u3:5
Model:    u4:dx       u3:dx       u3:dx       u3:dx       u3:dx
Id:      1.08e-04   -3.82e-13    2.21e-14    3.48e-08    4.01e-03
Vd:      6.57e-01   -3.81e-01    2.08e-02    4.49e-01    7.51e-01
Req:     2.39e+02    1.00e+12    9.20e+11    7.43e+05    6.45e+00
CAP:     0.00e+00    0.00e+00    0.00e+00    0.00e+00    0.00e+00

Name:    d:u3:2      d:u3:1        d4          d3          d2
Model:    u3:dx       u3:dx         d           d           d
Id:      1.08e-04   -2.14e-11   -3.93e-13    2.67e-08   -3.93e-13
Vd:      6.57e-01   -2.14e+01   -3.83e-01    3.83e-01   -3.83e-01
Req:     2.39e+02    1.00e+12    1.00e+12    9.68e+05    1.00e+12
CAP:     0.00e+00    0.00e+00    0.00e+00    0.00e+00    0.00e+00

Name:      d1        d:u2:3      d:u2:4      d:u2:6      d:u2:5
Model:      d         u2:dx       u2:dx       u2:dx       u2:dx
Id:      2.67e-08   -3.82e-13    2.21e-14    3.48e-08    4.01e-03
Vd:      3.83e-01   -3.81e-01    2.08e-02    4.49e-01    7.51e-01
Req:     9.68e+05    1.00e+12    9.20e+11    7.43e+05    6.45e+00
CAP:     0.00e+00    0.00e+00    0.00e+00    0.00e+00    0.00e+00

Name:    d:u2:2      d:u2:1      d:u1:3      d:u1:4      d:u1:6
Model:    u2:dx       u2:dx       u1:dx       u1:dx       u1:dx
Id:      1.08e-04   -2.14e-11   -2.17e-13   -1.45e-13    2.02e-05
Vd:      6.57e-01   -2.14e+01   -2.16e-01   -1.44e-01    6.14e-01
Req:     2.39e+02    1.00e+12    1.00e+12    1.00e+12    1.28e+03
CAP:     0.00e+00    0.00e+00    0.00e+00    0.00e+00    0.00e+00

Name:    d:u1:5      d:u1:2      d:u1:1
Model:    u1:dx       u1:dx       u1:dx
Id:      2.55e-04   -2.14e-11    1.08e-04
Vd:      6.79e-01   -2.14e+01    6.57e-01
Req:     1.01e+02    1.00e+12    2.39e+02
CAP:     0.00e+00    0.00e+00    0.00e+00

                        --- Bipolar Transistors ---
Name:     q:u4:2      q:u4:1      q:u3:2      q:u3:1        q6
Model:     u4:qx       u4:qx       u3:qx       u3:qx      2n3391a
Ib:       1.60e-07   -9.88e-12   -9.89e-12    1.60e-07   -4.88e-12
Ic:       9.98e-05    9.90e-12    4.92e-11    9.98e-05    2.26e-11
Vbe:      7.15e-01    2.62e-02    3.33e-01    7.15e-01    9.69e-02
Vbc:     -9.16e+00   -9.90e+00   -1.03e+01   -9.85e+00   -2.18e+01
Vce:      9.88e+00    9.93e+00    1.06e+01    1.06e+01    2.19e+01
BetaDC:   6.25e+02   -1.00e+00   -4.97e+00    6.25e+02   -4.63e+00
Gm:       3.86e-03    1.06e-14    1.50e-09    3.86e-03    3.11e-11
Rpi:      1.62e+05    1.00e+12    2.93e+11    1.62e+05    2.57e+09
Rx:       0.00e+00    0.00e+00    0.00e+00    0.00e+00    1.00e+01
Ro:         NaN         NaN         NaN         NaN       7.34e+13
Cbe:      0.00e+00    0.00e+00    0.00e+00    0.00e+00    8.76e-12
Cbc:      0.00e+00    0.00e+00    0.00e+00    0.00e+00    1.95e-12
Cjs:      0.00e+00    0.00e+00    0.00e+00    0.00e+00    0.00e+00
BetaAC:   6.25e+02    1.06e-02    4.42e+02    6.25e+02    8.02e-02
Cbx:      0.00e+00    0.00e+00    0.00e+00    0.00e+00    0.00e+00
Ft:       0.00e+00    0.00e+00    0.00e+00    0.00e+00    5.76e+00

Name:       q8          q2          q4          q7          q5
Model:    2n3391a     2n3391a     2n3391a     2n4126      2n4126
Ib:      -2.86e-11   -4.88e-12   -2.86e-11   -1.01e-04   -4.95e-07
Ic:       2.37e-11    2.26e-11    2.37e-11    1.01e-04   -1.01e-04
Vbe:     -1.92e+00    9.69e-02   -1.92e+00   -6.88e-01   -6.46e-01
Vbc:     -2.37e+01   -2.18e+01   -2.37e+01   -6.88e-01   -3.56e-04
Vce:      2.18e+01    2.19e+01    2.18e+01    3.56e-04   -6.46e-01
BetaDC:  -8.29e-01   -4.63e+00   -8.29e-01   -9.95e-01    2.03e+02
Gm:       3.88e-45    3.11e-11    3.88e-45   -7.23e-05    3.88e-03
Rpi:      1.00e+12    2.57e+09    1.00e+12    1.09e+04    5.23e+04
Rx:       1.00e+01    1.00e+01    1.00e+01    1.00e+01    1.00e+01
Ro:       0.00e+00    7.34e+13    0.00e+00    5.55e+01    1.86e+05
Cbe:      5.10e-12    8.76e-12    5.10e-12    1.68e-11    1.39e-11
Cbc:      1.90e-12    1.95e-12    1.90e-12    6.46e-10    9.73e-12
Cjs:      0.00e+00    0.00e+00    0.00e+00    0.00e+00    0.00e+00
BetaAC:   3.88e-33    8.02e-02    3.88e-33   -7.86e-01    2.03e+02
Cbx:      0.00e+00    0.00e+00    0.00e+00    0.00e+00    0.00e+00
Ft:       2.28e-02    5.76e+00    2.28e-02    1.36e+04    2.62e+07

Name:       q1          q3        q:u2:2      q:u2:1      q:u1:2
Model:    2n4126      2n4126       u2:qx       u2:qx       u1:qx
Ib:      -4.95e-07   -1.01e-04   -9.89e-12    1.60e-07    1.60e-07
Ic:      -1.01e-04    1.01e-04    4.92e-11    9.98e-05    9.98e-05
Vbe:     -6.46e-01   -6.88e-01    3.33e-01    7.15e-01    7.15e-01
Vbc:     -3.56e-04   -6.88e-01   -1.03e+01   -9.85e+00   -9.16e+00
Vce:     -6.46e-01    3.56e-04    1.06e+01    1.06e+01    9.88e+00
BetaDC:   2.03e+02   -9.95e-01   -4.97e+00    6.25e+02    6.25e+02
Gm:       3.88e-03   -7.23e-05    1.50e-09    3.86e-03    3.86e-03
Rpi:      5.23e+04    1.09e+04    2.93e+11    1.62e+05    1.62e+05
Rx:       1.00e+01    1.00e+01    0.00e+00    0.00e+00    0.00e+00
Ro:       1.86e+05    5.55e+01      NaN         NaN         NaN
Cbe:      1.39e-11    1.68e-11    0.00e+00    0.00e+00    0.00e+00
Cbc:      9.73e-12    6.46e-10    0.00e+00    0.00e+00    0.00e+00
Cjs:      0.00e+00    0.00e+00    0.00e+00    0.00e+00    0.00e+00
BetaAC:   2.03e+02   -7.86e-01    4.42e+02    6.25e+02    6.25e+02
Cbx:      0.00e+00    0.00e+00    0.00e+00    0.00e+00    0.00e+00
Ft:       2.62e+07    1.36e+04    0.00e+00    0.00e+00    0.00e+00

Name:     q:u1:1
Model:     u1:qx
Ib:      -9.88e-12
Ic:       9.90e-12
Vbe:      2.62e-02
Vbc:     -9.90e+00
Vce:      9.93e+00
BetaDC:  -1.00e+00
Gm:       1.06e-14
Rpi:      1.00e+12
Rx:       0.00e+00
Ro:         NaN
Cbe:      0.00e+00
Cbc:      0.00e+00
Cjs:      0.00e+00
BetaAC:   1.06e-02
Cbx:      0.00e+00
Ft:       0.00e+00



Date: Thu Sep 17 17:10:58 2020
Total elapsed time: 0.080 seconds.

tnom = 27
temp = 27
method = trap
totiter = 44
traniter = 0
tranpoints = 0
accept = 0
rejected = 0
matrix size = 162
fillins = 279
solver = Normal

